date Tue May 16 14:00:00 PM 2026
base hex  timestamps absolute
internal events logged
   0.000000 1  C8              Rx   d 8 00 00 00 00 00 00 00 00
   0.010000 1  C8              Rx   d 8 0E 00 00 00 00 00 00 00
   0.020000 1  C8              Rx   d 8 1C 00 00 00 00 00 00 00
   0.030000 1  C8              Rx   d 8 2A 00 00 00 00 00 00 00
   0.040000 1  C8              Rx   d 8 38 00 00 00 00 00 00 00
   0.050000 1  C8              Rx   d 8 46 00 01 00 00 00 00 00
   0.060000 1  C8              Rx   d 8 54 00 01 00 00 00 00 00
   0.070000 1  C8              Rx   d 8 62 00 01 00 00 00 00 00
   0.080000 1  C8              Rx   d 8 6F 00 01 00 00 00 00 00
   0.090000 1  C8              Rx   d 8 7D 00 01 00 00 00 00 00
   0.100000 1  C8              Rx   d 8 8B 00 02 00 00 00 00 00
   0.110000 1  C8              Rx   d 8 98 00 02 00 00 00 00 00
   0.120000 1  C8              Rx   d 8 A5 00 02 00 00 00 00 00
   0.130000 1  C8              Rx   d 8 B2 00 02 00 00 00 00 00
   0.140000 1  C8              Rx   d 8 BF 00 02 00 00 00 00 00
   0.150000 1  C8              Rx   d 8 CC 00 03 00 00 00 00 00
   0.160000 1  C8              Rx   d 8 D8 00 03 00 00 00 00 00
   0.170000 1  C8              Rx   d 8 E5 00 03 00 00 00 00 00
   0.180000 1  C8              Rx   d 8 F1 00 03 00 00 00 00 00
   0.190000 1  C8              Rx   d 8 FC 00 03 00 00 00 00 00
   0.200000 1  C8              Rx   d 8 08 01 04 00 00 00 00 00
   0.210000 1  C8              Rx   d 8 13 01 04 00 00 00 00 00
   0.220000 1  C8              Rx   d 8 1E 01 04 00 00 00 00 00
   0.230000 1  C8              Rx   d 8 29 01 04 00 00 00 00 00
   0.240000 1  C8              Rx   d 8 34 01 04 00 00 00 00 00
   0.250000 1  C8              Rx   d 8 3E 01 05 00 00 00 00 00
   0.260000 1  C8              Rx   d 8 48 01 05 00 00 00 00 00
   0.270000 1  C8              Rx   d 8 51 01 05 00 00 00 00 00
   0.280000 1  C8              Rx   d 8 5A 01 05 00 00 00 00 00
   0.290000 1  C8              Rx   d 8 63 01 05 00 00 00 00 00
   0.300000 1  C8              Rx   d 8 6C 01 06 00 00 00 00 00
   0.310000 1  C8              Rx   d 8 74 01 06 00 00 00 00 00
   0.320000 1  C8              Rx   d 8 7B 01 06 00 00 00 00 00
   0.330000 1  C8              Rx   d 8 83 01 06 00 00 00 00 00
   0.340000 1  C8              Rx   d 8 8A 01 06 00 00 00 00 00
   0.350000 1  C8              Rx   d 8 90 01 07 00 00 00 00 00
   0.360000 1  C8              Rx   d 8 97 01 07 00 00 00 00 00
   0.370000 1  C8              Rx   d 8 9C 01 07 00 00 00 00 00
   0.380000 1  C8              Rx   d 8 A2 01 07 00 00 00 00 00
   0.390000 1  C8              Rx   d 8 A7 01 07 00 00 00 00 00
   0.400000 1  C8              Rx   d 8 AB 01 08 00 00 00 00 00
   0.410000 1  C8              Rx   d 8 B0 01 08 00 00 00 00 00
   0.420000 1  C8              Rx   d 8 B3 01 08 00 00 00 00 00
   0.430000 1  C8              Rx   d 8 B7 01 08 00 00 00 00 00
   0.440000 1  C8              Rx   d 8 BA 01 08 00 00 00 00 00
   0.450000 1  C8              Rx   d 8 BC 01 09 00 00 00 00 00
   0.460000 1  C8              Rx   d 8 BE 01 09 00 00 00 00 00
   0.470000 1  C8              Rx   d 8 C0 01 09 00 00 00 00 00
   0.480000 1  C8              Rx   d 8 C1 01 09 00 00 00 00 00
   0.490000 1  C8              Rx   d 8 C1 01 09 00 00 00 00 00
   0.500000 1  C8              Rx   d 8 C2 01 0A 00 00 00 00 00
   0.510000 1  C8              Rx   d 8 C1 01 0A 00 00 00 00 00
   0.520000 1  C8              Rx   d 8 C1 01 0A 00 00 00 00 00
   0.530000 1  C8              Rx   d 8 C0 01 0A 00 00 00 00 00
   0.540000 1  C8              Rx   d 8 BE 01 0A 00 00 00 00 00
   0.550000 1  C8              Rx   d 8 BC 01 0B 00 00 00 00 00
   0.560000 1  C8              Rx   d 8 BA 01 0B 00 00 00 00 00
   0.570000 1  C8              Rx   d 8 B7 01 0B 00 00 00 00 00
   0.580000 1  C8              Rx   d 8 B3 01 0B 00 00 00 00 00
   0.590000 1  C8              Rx   d 8 B0 01 0B 00 00 00 00 00
   0.600000 1  C8              Rx   d 8 AB 01 0C 00 00 00 00 00
   0.610000 1  C8              Rx   d 8 A7 01 0C 00 00 00 00 00
   0.620000 1  C8              Rx   d 8 A2 01 0C 00 00 00 00 00
   0.630000 1  C8              Rx   d 8 9C 01 0C 00 00 00 00 00
   0.640000 1  C8              Rx   d 8 97 01 0C 00 00 00 00 00
   0.650000 1  C8              Rx   d 8 90 01 0D 00 00 00 00 00
   0.660000 1  C8              Rx   d 8 8A 01 0D 00 00 00 00 00
   0.670000 1  C8              Rx   d 8 83 01 0D 00 00 00 00 00
   0.680000 1  C8              Rx   d 8 7B 01 0D 00 00 00 00 00
   0.690000 1  C8              Rx   d 8 74 01 0D 00 00 00 00 00
   0.700000 1  C8              Rx   d 8 6C 01 0E 00 00 00 00 00
   0.710000 1  C8              Rx   d 8 63 01 0E 00 00 00 00 00
   0.720000 1  C8              Rx   d 8 5A 01 0E 00 00 00 00 00
   0.730000 1  C8              Rx   d 8 51 01 0E 00 00 00 00 00
   0.740000 1  C8              Rx   d 8 48 01 0E 00 00 00 00 00
   0.750000 1  C8              Rx   d 8 3E 01 0F 00 00 00 00 00
   0.760000 1  C8              Rx   d 8 34 01 0F 00 00 00 00 00
   0.770000 1  C8              Rx   d 8 29 01 0F 00 00 00 00 00
   0.780000 1  C8              Rx   d 8 1E 01 0F 00 00 00 00 00
   0.790000 1  C8              Rx   d 8 13 01 0F 00 00 00 00 00
   0.800000 1  C8              Rx   d 8 08 01 10 00 00 00 00 00
   0.810000 1  C8              Rx   d 8 FC 00 10 00 00 00 00 00
   0.820000 1  C8              Rx   d 8 F1 00 10 00 00 00 00 00
   0.830000 1  C8              Rx   d 8 E5 00 10 00 00 00 00 00
   0.840000 1  C8              Rx   d 8 D8 00 10 00 00 00 00 00
   0.850000 1  C8              Rx   d 8 CC 00 11 00 00 00 00 00
   0.860000 1  C8              Rx   d 8 BF 00 11 00 00 00 00 00
   0.870000 1  C8              Rx   d 8 B2 00 11 00 00 00 00 00
   0.880000 1  C8              Rx   d 8 A5 00 11 00 00 00 00 00
   0.890000 1  C8              Rx   d 8 98 00 11 00 00 00 00 00
   0.900000 1  C8              Rx   d 8 8B 00 12 00 00 00 00 00
   0.910000 1  C8              Rx   d 8 7D 00 12 00 00 00 00 00
   0.920000 1  C8              Rx   d 8 6F 00 12 00 00 00 00 00
   0.930000 1  C8              Rx   d 8 62 00 12 00 00 00 00 00
   0.940000 1  C8              Rx   d 8 54 00 12 00 00 00 00 00
   0.950000 1  C8              Rx   d 8 46 00 13 00 00 00 00 00
   0.960000 1  C8              Rx   d 8 38 00 13 00 00 00 00 00
   0.970000 1  C8              Rx   d 8 2A 00 13 00 00 00 00 00
   0.980000 1  C8              Rx   d 8 1C 00 13 00 00 00 00 00
   0.990000 1  C8              Rx   d 8 0E 00 13 00 00 00 00 00
   1.000000 1  C8              Rx   d 8 00 00 14 00 00 00 00 00
   1.010000 1  C8              Rx   d 8 F2 FF 14 00 00 00 00 00
   1.020000 1  C8              Rx   d 8 E4 FF 14 00 00 00 00 00
   1.030000 1  C8              Rx   d 8 D6 FF 14 00 00 00 00 00
   1.040000 1  C8              Rx   d 8 C8 FF 14 00 00 00 00 00
   1.050000 1  C8              Rx   d 8 BA FF 15 00 00 00 00 00
   1.060000 1  C8              Rx   d 8 AC FF 15 00 00 00 00 00
   1.070000 1  C8              Rx   d 8 9E FF 15 00 00 00 00 00
   1.080000 1  C8              Rx   d 8 91 FF 15 00 00 00 00 00
   1.090000 1  C8              Rx   d 8 83 FF 15 00 00 00 00 00
   1.100000 1  C8              Rx   d 8 75 FF 16 00 00 00 00 00
   1.110000 1  C8              Rx   d 8 68 FF 16 00 00 00 00 00
   1.120000 1  C8              Rx   d 8 5B FF 16 00 00 00 00 00
   1.130000 1  C8              Rx   d 8 4E FF 16 00 00 00 00 00
   1.140000 1  C8              Rx   d 8 41 FF 16 00 00 00 00 00
   1.150000 1  C8              Rx   d 8 34 FF 17 00 00 00 00 00
   1.160000 1  C8              Rx   d 8 28 FF 17 00 00 00 00 00
   1.170000 1  C8              Rx   d 8 1B FF 17 00 00 00 00 00
   1.180000 1  C8              Rx   d 8 0F FF 17 00 00 00 00 00
   1.190000 1  C8              Rx   d 8 04 FF 17 00 00 00 00 00
   1.200000 1  C8              Rx   d 8 F8 FE 18 00 00 00 00 00
   1.210000 1  C8              Rx   d 8 ED FE 18 00 00 00 00 00
   1.220000 1  C8              Rx   d 8 E2 FE 18 00 00 00 00 00
   1.230000 1  C8              Rx   d 8 D7 FE 18 00 00 00 00 00
   1.240000 1  C8              Rx   d 8 CC FE 18 00 00 00 00 00
   1.250000 1  C8              Rx   d 8 C2 FE 19 00 00 00 00 00
   1.260000 1  C8              Rx   d 8 B8 FE 19 00 00 00 00 00
   1.270000 1  C8              Rx   d 8 AF FE 19 00 00 00 00 00
   1.280000 1  C8              Rx   d 8 A6 FE 19 00 00 00 00 00
   1.290000 1  C8              Rx   d 8 9D FE 19 00 00 00 00 00
   1.300000 1  C8              Rx   d 8 94 FE 1A 00 00 00 00 00
   1.310000 1  C8              Rx   d 8 8C FE 1A 00 00 00 00 00
   1.320000 1  C8              Rx   d 8 85 FE 1A 00 00 00 00 00
   1.330000 1  C8              Rx   d 8 7D FE 1A 00 00 00 00 00
   1.340000 1  C8              Rx   d 8 76 FE 1A 00 00 00 00 00
   1.350000 1  C8              Rx   d 8 70 FE 1B 00 00 00 00 00
   1.360000 1  C8              Rx   d 8 69 FE 1B 00 00 00 00 00
   1.370000 1  C8              Rx   d 8 64 FE 1B 00 00 00 00 00
   1.380000 1  C8              Rx   d 8 5E FE 1B 00 00 00 00 00
   1.390000 1  C8              Rx   d 8 59 FE 1B 00 00 00 00 00
   1.400000 1  C8              Rx   d 8 55 FE 1C 00 00 00 00 00
   1.410000 1  C8              Rx   d 8 50 FE 1C 00 00 00 00 00
   1.420000 1  C8              Rx   d 8 4D FE 1C 00 00 00 00 00
   1.430000 1  C8              Rx   d 8 49 FE 1C 00 00 00 00 00
   1.440000 1  C8              Rx   d 8 46 FE 1C 00 00 00 00 00
   1.450000 1  C8              Rx   d 8 44 FE 1D 00 00 00 00 00
   1.460000 1  C8              Rx   d 8 42 FE 1D 00 00 00 00 00
   1.470000 1  C8              Rx   d 8 40 FE 1D 00 00 00 00 00
   1.480000 1  C8              Rx   d 8 3F FE 1D 00 00 00 00 00
   1.490000 1  C8              Rx   d 8 3F FE 1D 00 00 00 00 00
   1.500000 1  C8              Rx   d 8 3E FE 1E 00 00 00 00 00
   1.510000 1  C8              Rx   d 8 3F FE 1E 00 00 00 00 00
   1.520000 1  C8              Rx   d 8 3F FE 1E 00 00 00 00 00
   1.530000 1  C8              Rx   d 8 40 FE 1E 00 00 00 00 00
   1.540000 1  C8              Rx   d 8 42 FE 1E 00 00 00 00 00
   1.550000 1  C8              Rx   d 8 44 FE 1F 00 00 00 00 00
   1.560000 1  C8              Rx   d 8 46 FE 1F 00 00 00 00 00
   1.570000 1  C8              Rx   d 8 49 FE 1F 00 00 00 00 00
   1.580000 1  C8              Rx   d 8 4D FE 1F 00 00 00 00 00
   1.590000 1  C8              Rx   d 8 50 FE 1F 00 00 00 00 00
   1.600000 1  C8              Rx   d 8 55 FE 20 00 00 00 00 00
   1.610000 1  C8              Rx   d 8 59 FE 20 00 00 00 00 00
   1.620000 1  C8              Rx   d 8 5E FE 20 00 00 00 00 00
   1.630000 1  C8              Rx   d 8 64 FE 20 00 00 00 00 00
   1.640000 1  C8              Rx   d 8 69 FE 20 00 00 00 00 00
   1.650000 1  C8              Rx   d 8 70 FE 21 00 00 00 00 00
   1.660000 1  C8              Rx   d 8 76 FE 21 00 00 00 00 00
   1.670000 1  C8              Rx   d 8 7D FE 21 00 00 00 00 00
   1.680000 1  C8              Rx   d 8 85 FE 21 00 00 00 00 00
   1.690000 1  C8              Rx   d 8 8C FE 21 00 00 00 00 00
   1.700000 1  C8              Rx   d 8 94 FE 22 00 00 00 00 00
   1.710000 1  C8              Rx   d 8 9D FE 22 00 00 00 00 00
   1.720000 1  C8              Rx   d 8 A6 FE 22 00 00 00 00 00
   1.730000 1  C8              Rx   d 8 AF FE 22 00 00 00 00 00
   1.740000 1  C8              Rx   d 8 B8 FE 22 00 00 00 00 00
   1.750000 1  C8              Rx   d 8 C2 FE 23 00 00 00 00 00
   1.760000 1  C8              Rx   d 8 CC FE 23 00 00 00 00 00
   1.770000 1  C8              Rx   d 8 D7 FE 23 00 00 00 00 00
   1.780000 1  C8              Rx   d 8 E2 FE 23 00 00 00 00 00
   1.790000 1  C8              Rx   d 8 ED FE 23 00 00 00 00 00
   1.800000 1  C8              Rx   d 8 F8 FE 24 00 00 00 00 00
   1.810000 1  C8              Rx   d 8 04 FF 24 00 00 00 00 00
   1.820000 1  C8              Rx   d 8 0F FF 24 00 00 00 00 00
   1.830000 1  C8              Rx   d 8 1B FF 24 00 00 00 00 00
   1.840000 1  C8              Rx   d 8 28 FF 24 00 00 00 00 00
   1.850000 1  C8              Rx   d 8 34 FF 25 00 00 00 00 00
   1.860000 1  C8              Rx   d 8 41 FF 25 00 00 00 00 00
   1.870000 1  C8              Rx   d 8 4E FF 25 00 00 00 00 00
   1.880000 1  C8              Rx   d 8 5B FF 25 00 00 00 00 00
   1.890000 1  C8              Rx   d 8 68 FF 25 00 00 00 00 00
   1.900000 1  C8              Rx   d 8 75 FF 26 00 00 00 00 00
   1.910000 1  C8              Rx   d 8 83 FF 26 00 00 00 00 00
   1.920000 1  C8              Rx   d 8 91 FF 26 00 00 00 00 00
   1.930000 1  C8              Rx   d 8 9E FF 26 00 00 00 00 00
   1.940000 1  C8              Rx   d 8 AC FF 26 00 00 00 00 00
   1.950000 1  C8              Rx   d 8 BA FF 27 00 00 00 00 00
   1.960000 1  C8              Rx   d 8 C8 FF 27 00 00 00 00 00
   1.970000 1  C8              Rx   d 8 D6 FF 27 00 00 00 00 00
   1.980000 1  C8              Rx   d 8 E4 FF 27 00 00 00 00 00
   1.990000 1  C8              Rx   d 8 F2 FF 27 00 00 00 00 00
   2.000000 1  C8              Rx   d 8 00 00 28 00 00 00 00 00
   2.010000 1  C8              Rx   d 8 0E 00 28 00 00 00 00 00
   2.020000 1  C8              Rx   d 8 1C 00 28 00 00 00 00 00
   2.030000 1  C8              Rx   d 8 2A 00 28 00 00 00 00 00
   2.040000 1  C8              Rx   d 8 38 00 28 00 00 00 00 00
   2.050000 1  C8              Rx   d 8 46 00 29 00 00 00 00 00
   2.060000 1  C8              Rx   d 8 54 00 29 00 00 00 00 00
   2.070000 1  C8              Rx   d 8 62 00 29 00 00 00 00 00
   2.080000 1  C8              Rx   d 8 6F 00 29 00 00 00 00 00
   2.090000 1  C8              Rx   d 8 7D 00 29 00 00 00 00 00
   2.100000 1  C8              Rx   d 8 8B 00 2A 00 00 00 00 00
   2.110000 1  C8              Rx   d 8 98 00 2A 00 00 00 00 00
   2.120000 1  C8              Rx   d 8 A5 00 2A 00 00 00 00 00
   2.130000 1  C8              Rx   d 8 B2 00 2A 00 00 00 00 00
   2.140000 1  C8              Rx   d 8 BF 00 2A 00 00 00 00 00
   2.150000 1  C8              Rx   d 8 CC 00 2B 00 00 00 00 00
   2.160000 1  C8              Rx   d 8 D8 00 2B 00 00 00 00 00
   2.170000 1  C8              Rx   d 8 E5 00 2B 00 00 00 00 00
   2.180000 1  C8              Rx   d 8 F1 00 2B 00 00 00 00 00
   2.190000 1  C8              Rx   d 8 FC 00 2B 00 00 00 00 00
   2.200000 1  C8              Rx   d 8 08 01 2C 00 00 00 00 00
   2.210000 1  C8              Rx   d 8 13 01 2C 00 00 00 00 00
   2.220000 1  C8              Rx   d 8 1E 01 2C 00 00 00 00 00
   2.230000 1  C8              Rx   d 8 29 01 2C 00 00 00 00 00
   2.240000 1  C8              Rx   d 8 34 01 2C 00 00 00 00 00
   2.250000 1  C8              Rx   d 8 3E 01 2D 00 00 00 00 00
   2.260000 1  C8              Rx   d 8 48 01 2D 00 00 00 00 00
   2.270000 1  C8              Rx   d 8 51 01 2D 00 00 00 00 00
   2.280000 1  C8              Rx   d 8 5A 01 2D 00 00 00 00 00
   2.290000 1  C8              Rx   d 8 63 01 2D 00 00 00 00 00
   2.300000 1  C8              Rx   d 8 6C 01 2E 00 00 00 00 00
   2.310000 1  C8              Rx   d 8 74 01 2E 00 00 00 00 00
   2.320000 1  C8              Rx   d 8 7B 01 2E 00 00 00 00 00
   2.330000 1  C8              Rx   d 8 83 01 2E 00 00 00 00 00
   2.340000 1  C8              Rx   d 8 8A 01 2E 00 00 00 00 00
   2.350000 1  C8              Rx   d 8 90 01 2F 00 00 00 00 00
   2.360000 1  C8              Rx   d 8 97 01 2F 00 00 00 00 00
   2.370000 1  C8              Rx   d 8 9C 01 2F 00 00 00 00 00
   2.380000 1  C8              Rx   d 8 A2 01 2F 00 00 00 00 00
   2.390000 1  C8              Rx   d 8 A7 01 2F 00 00 00 00 00
   2.400000 1  C8              Rx   d 8 AB 01 30 00 00 00 00 00
   2.410000 1  C8              Rx   d 8 B0 01 30 00 00 00 00 00
   2.420000 1  C8              Rx   d 8 B3 01 30 00 00 00 00 00
   2.430000 1  C8              Rx   d 8 B7 01 30 00 00 00 00 00
   2.440000 1  C8              Rx   d 8 BA 01 30 00 00 00 00 00
   2.450000 1  C8              Rx   d 8 BC 01 31 00 00 00 00 00
   2.460000 1  C8              Rx   d 8 BE 01 31 00 00 00 00 00
   2.470000 1  C8              Rx   d 8 C0 01 31 00 00 00 00 00
   2.480000 1  C8              Rx   d 8 C1 01 31 00 00 00 00 00
   2.490000 1  C8              Rx   d 8 C1 01 31 00 00 00 00 00
   2.500000 1  C8              Rx   d 8 C2 01 32 00 00 00 00 00
   2.510000 1  C8              Rx   d 8 C1 01 32 00 00 00 00 00
   2.520000 1  C8              Rx   d 8 C1 01 32 00 00 00 00 00
   2.530000 1  C8              Rx   d 8 C0 01 32 00 00 00 00 00
   2.540000 1  C8              Rx   d 8 BE 01 32 00 00 00 00 00
   2.550000 1  C8              Rx   d 8 BC 01 33 00 00 00 00 00
   2.560000 1  C8              Rx   d 8 BA 01 33 00 00 00 00 00
   2.570000 1  C8              Rx   d 8 B7 01 33 00 00 00 00 00
   2.580000 1  C8              Rx   d 8 B3 01 33 00 00 00 00 00
   2.590000 1  C8              Rx   d 8 B0 01 33 00 00 00 00 00
   2.600000 1  C8              Rx   d 8 AB 01 34 00 00 00 00 00
   2.610000 1  C8              Rx   d 8 A7 01 34 00 00 00 00 00
   2.620000 1  C8              Rx   d 8 A2 01 34 00 00 00 00 00
   2.630000 1  C8              Rx   d 8 9C 01 34 00 00 00 00 00
   2.640000 1  C8              Rx   d 8 97 01 34 00 00 00 00 00
   2.650000 1  C8              Rx   d 8 90 01 35 00 00 00 00 00
   2.660000 1  C8              Rx   d 8 8A 01 35 00 00 00 00 00
   2.670000 1  C8              Rx   d 8 83 01 35 00 00 00 00 00
   2.680000 1  C8              Rx   d 8 7B 01 35 00 00 00 00 00
   2.690000 1  C8              Rx   d 8 74 01 35 00 00 00 00 00
   2.700000 1  C8              Rx   d 8 6C 01 36 00 00 00 00 00
   2.710000 1  C8              Rx   d 8 63 01 36 00 00 00 00 00
   2.720000 1  C8              Rx   d 8 5A 01 36 00 00 00 00 00
   2.730000 1  C8              Rx   d 8 51 01 36 00 00 00 00 00
   2.740000 1  C8              Rx   d 8 48 01 36 00 00 00 00 00
   2.750000 1  C8              Rx   d 8 3E 01 37 00 00 00 00 00
   2.760000 1  C8              Rx   d 8 34 01 37 00 00 00 00 00
   2.770000 1  C8              Rx   d 8 29 01 37 00 00 00 00 00
   2.780000 1  C8              Rx   d 8 1E 01 37 00 00 00 00 00
   2.790000 1  C8              Rx   d 8 13 01 37 00 00 00 00 00
   2.800000 1  C8              Rx   d 8 08 01 38 00 00 00 00 00
   2.810000 1  C8              Rx   d 8 FC 00 38 00 00 00 00 00
   2.820000 1  C8              Rx   d 8 F1 00 38 00 00 00 00 00
   2.830000 1  C8              Rx   d 8 E5 00 38 00 00 00 00 00
   2.840000 1  C8              Rx   d 8 D8 00 38 00 00 00 00 00
   2.850000 1  C8              Rx   d 8 CC 00 39 00 00 00 00 00
   2.860000 1  C8              Rx   d 8 BF 00 39 00 00 00 00 00
   2.870000 1  C8              Rx   d 8 B2 00 39 00 00 00 00 00
   2.880000 1  C8              Rx   d 8 A5 00 39 00 00 00 00 00
   2.890000 1  C8              Rx   d 8 98 00 39 00 00 00 00 00
   2.900000 1  C8              Rx   d 8 8B 00 3A 00 00 00 00 00
   2.910000 1  C8              Rx   d 8 7D 00 3A 00 00 00 00 00
   2.920000 1  C8              Rx   d 8 6F 00 3A 00 00 00 00 00
   2.930000 1  C8              Rx   d 8 62 00 3A 00 00 00 00 00
   2.940000 1  C8              Rx   d 8 54 00 3A 00 00 00 00 00
   2.950000 1  C8              Rx   d 8 46 00 3B 00 00 00 00 00
   2.960000 1  C8              Rx   d 8 38 00 3B 00 00 00 00 00
   2.970000 1  C8              Rx   d 8 2A 00 3B 00 00 00 00 00
   2.980000 1  C8              Rx   d 8 1C 00 3B 00 00 00 00 00
   2.990000 1  C8              Rx   d 8 0E 00 3B 00 00 00 00 00
   3.000000 1  C8              Rx   d 8 00 00 3C 00 00 00 00 00
   3.010000 1  C8              Rx   d 8 F2 FF 3C 00 00 00 00 00
   3.020000 1  C8              Rx   d 8 E4 FF 3C 00 00 00 00 00
   3.030000 1  C8              Rx   d 8 D6 FF 3C 00 00 00 00 00
   3.040000 1  C8              Rx   d 8 C8 FF 3C 00 00 00 00 00
   3.050000 1  C8              Rx   d 8 BA FF 3D 00 00 00 00 00
   3.060000 1  C8              Rx   d 8 AC FF 3D 00 00 00 00 00
   3.070000 1  C8              Rx   d 8 9E FF 3D 00 00 00 00 00
   3.080000 1  C8              Rx   d 8 91 FF 3D 00 00 00 00 00
   3.090000 1  C8              Rx   d 8 83 FF 3D 00 00 00 00 00
   3.100000 1  C8              Rx   d 8 75 FF 3E 00 00 00 00 00
   3.110000 1  C8              Rx   d 8 68 FF 3E 00 00 00 00 00
   3.120000 1  C8              Rx   d 8 5B FF 3E 00 00 00 00 00
   3.130000 1  C8              Rx   d 8 4E FF 3E 00 00 00 00 00
   3.140000 1  C8              Rx   d 8 41 FF 3E 00 00 00 00 00
   3.150000 1  C8              Rx   d 8 34 FF 3F 00 00 00 00 00
   3.160000 1  C8              Rx   d 8 28 FF 3F 00 00 00 00 00
   3.170000 1  C8              Rx   d 8 1B FF 3F 00 00 00 00 00
   3.180000 1  C8              Rx   d 8 0F FF 3F 00 00 00 00 00
   3.190000 1  C8              Rx   d 8 04 FF 3F 00 00 00 00 00
   3.200000 1  C8              Rx   d 8 F8 FE 40 00 00 00 00 00
   3.210000 1  C8              Rx   d 8 ED FE 40 00 00 00 00 00
   3.220000 1  C8              Rx   d 8 E2 FE 40 00 00 00 00 00
   3.230000 1  C8              Rx   d 8 D7 FE 40 00 00 00 00 00
   3.240000 1  C8              Rx   d 8 CC FE 40 00 00 00 00 00
   3.250000 1  C8              Rx   d 8 C2 FE 41 00 00 00 00 00
   3.260000 1  C8              Rx   d 8 B8 FE 41 00 00 00 00 00
   3.270000 1  C8              Rx   d 8 AF FE 41 00 00 00 00 00
   3.280000 1  C8              Rx   d 8 A6 FE 41 00 00 00 00 00
   3.290000 1  C8              Rx   d 8 9D FE 41 00 00 00 00 00
   3.300000 1  C8              Rx   d 8 94 FE 42 00 00 00 00 00
   3.310000 1  C8              Rx   d 8 8C FE 42 00 00 00 00 00
   3.320000 1  C8              Rx   d 8 85 FE 42 00 00 00 00 00
   3.330000 1  C8              Rx   d 8 7D FE 42 00 00 00 00 00
   3.340000 1  C8              Rx   d 8 76 FE 42 00 00 00 00 00
   3.350000 1  C8              Rx   d 8 70 FE 43 00 00 00 00 00
   3.360000 1  C8              Rx   d 8 69 FE 43 00 00 00 00 00
   3.370000 1  C8              Rx   d 8 64 FE 43 00 00 00 00 00
   3.380000 1  C8              Rx   d 8 5E FE 43 00 00 00 00 00
   3.390000 1  C8              Rx   d 8 59 FE 43 00 00 00 00 00
   3.400000 1  C8              Rx   d 8 55 FE 44 00 00 00 00 00
   3.410000 1  C8              Rx   d 8 50 FE 44 00 00 00 00 00
   3.420000 1  C8              Rx   d 8 4D FE 44 00 00 00 00 00
   3.430000 1  C8              Rx   d 8 49 FE 44 00 00 00 00 00
   3.440000 1  C8              Rx   d 8 46 FE 44 00 00 00 00 00
   3.450000 1  C8              Rx   d 8 44 FE 45 00 00 00 00 00
   3.460000 1  C8              Rx   d 8 42 FE 45 00 00 00 00 00
   3.470000 1  C8              Rx   d 8 40 FE 45 00 00 00 00 00
   3.480000 1  C8              Rx   d 8 3F FE 45 00 00 00 00 00
   3.490000 1  C8              Rx   d 8 3F FE 45 00 00 00 00 00
   3.500000 1  C8              Rx   d 8 3E FE 46 00 00 00 00 00
   3.510000 1  C8              Rx   d 8 3F FE 46 00 00 00 00 00
   3.520000 1  C8              Rx   d 8 3F FE 46 00 00 00 00 00
   3.530000 1  C8              Rx   d 8 40 FE 46 00 00 00 00 00
   3.540000 1  C8              Rx   d 8 42 FE 46 00 00 00 00 00
   3.550000 1  C8              Rx   d 8 44 FE 47 00 00 00 00 00
   3.560000 1  C8              Rx   d 8 46 FE 47 00 00 00 00 00
   3.570000 1  C8              Rx   d 8 49 FE 47 00 00 00 00 00
   3.580000 1  C8              Rx   d 8 4D FE 47 00 00 00 00 00
   3.590000 1  C8              Rx   d 8 50 FE 47 00 00 00 00 00
   3.600000 1  C8              Rx   d 8 55 FE 48 00 00 00 00 00
   3.610000 1  C8              Rx   d 8 59 FE 48 00 00 00 00 00
   3.620000 1  C8              Rx   d 8 5E FE 48 00 00 00 00 00
   3.630000 1  C8              Rx   d 8 64 FE 48 00 00 00 00 00
   3.640000 1  C8              Rx   d 8 69 FE 48 00 00 00 00 00
   3.650000 1  C8              Rx   d 8 70 FE 49 00 00 00 00 00
   3.660000 1  C8              Rx   d 8 76 FE 49 00 00 00 00 00
   3.670000 1  C8              Rx   d 8 7D FE 49 00 00 00 00 00
   3.680000 1  C8              Rx   d 8 85 FE 49 00 00 00 00 00
   3.690000 1  C8              Rx   d 8 8C FE 49 00 00 00 00 00
   3.700000 1  C8              Rx   d 8 94 FE 4A 00 00 00 00 00
   3.710000 1  C8              Rx   d 8 9D FE 4A 00 00 00 00 00
   3.720000 1  C8              Rx   d 8 A6 FE 4A 00 00 00 00 00
   3.730000 1  C8              Rx   d 8 AF FE 4A 00 00 00 00 00
   3.740000 1  C8              Rx   d 8 B8 FE 4A 00 00 00 00 00
   3.750000 1  C8              Rx   d 8 C2 FE 4B 00 00 00 00 00
   3.760000 1  C8              Rx   d 8 CC FE 4B 00 00 00 00 00
   3.770000 1  C8              Rx   d 8 D7 FE 4B 00 00 00 00 00
   3.780000 1  C8              Rx   d 8 E2 FE 4B 00 00 00 00 00
   3.790000 1  C8              Rx   d 8 ED FE 4B 00 00 00 00 00
   3.800000 1  C8              Rx   d 8 F8 FE 4C 00 00 00 00 00
   3.810000 1  C8              Rx   d 8 04 FF 4C 00 00 00 00 00
   3.820000 1  C8              Rx   d 8 0F FF 4C 00 00 00 00 00
   3.830000 1  C8              Rx   d 8 1B FF 4C 00 00 00 00 00
   3.840000 1  C8              Rx   d 8 28 FF 4C 00 00 00 00 00
   3.850000 1  C8              Rx   d 8 34 FF 4D 00 00 00 00 00
   3.860000 1  C8              Rx   d 8 41 FF 4D 00 00 00 00 00
   3.870000 1  C8              Rx   d 8 4E FF 4D 00 00 00 00 00
   3.880000 1  C8              Rx   d 8 5B FF 4D 00 00 00 00 00
   3.890000 1  C8              Rx   d 8 68 FF 4D 00 00 00 00 00
   3.900000 1  C8              Rx   d 8 75 FF 4E 00 00 00 00 00
   3.910000 1  C8              Rx   d 8 83 FF 4E 00 00 00 00 00
   3.920000 1  C8              Rx   d 8 91 FF 4E 00 00 00 00 00
   3.930000 1  C8              Rx   d 8 9E FF 4E 00 00 00 00 00
   3.940000 1  C8              Rx   d 8 AC FF 4E 00 00 00 00 00
   3.950000 1  C8              Rx   d 8 BA FF 4F 00 00 00 00 00
   3.960000 1  C8              Rx   d 8 C8 FF 4F 00 00 00 00 00
   3.970000 1  C8              Rx   d 8 D6 FF 4F 00 00 00 00 00
   3.980000 1  C8              Rx   d 8 E4 FF 4F 00 00 00 00 00
   3.990000 1  C8              Rx   d 8 F2 FF 4F 00 00 00 00 00
   4.000000 1  C8              Rx   d 8 00 00 50 00 00 00 00 00
   4.010000 1  C8              Rx   d 8 0E 00 50 00 00 00 00 00
   4.020000 1  C8              Rx   d 8 1C 00 50 00 00 00 00 00
   4.030000 1  C8              Rx   d 8 2A 00 50 00 00 00 00 00
   4.040000 1  C8              Rx   d 8 38 00 50 00 00 00 00 00
   4.050000 1  C8              Rx   d 8 46 00 51 00 00 00 00 00
   4.060000 1  C8              Rx   d 8 54 00 51 00 00 00 00 00
   4.070000 1  C8              Rx   d 8 62 00 51 00 00 00 00 00
   4.080000 1  C8              Rx   d 8 6F 00 51 00 00 00 00 00
   4.090000 1  C8              Rx   d 8 7D 00 51 00 00 00 00 00
   4.100000 1  C8              Rx   d 8 8B 00 52 00 00 00 00 00
   4.110000 1  C8              Rx   d 8 98 00 52 00 00 00 00 00
   4.120000 1  C8              Rx   d 8 A5 00 52 00 00 00 00 00
   4.130000 1  C8              Rx   d 8 B2 00 52 00 00 00 00 00
   4.140000 1  C8              Rx   d 8 BF 00 52 00 00 00 00 00
   4.150000 1  C8              Rx   d 8 CC 00 53 00 00 00 00 00
   4.160000 1  C8              Rx   d 8 D8 00 53 00 00 00 00 00
   4.170000 1  C8              Rx   d 8 E5 00 53 00 00 00 00 00
   4.180000 1  C8              Rx   d 8 F1 00 53 00 00 00 00 00
   4.190000 1  C8              Rx   d 8 FC 00 53 00 00 00 00 00
   4.200000 1  C8              Rx   d 8 08 01 54 00 00 00 00 00
   4.210000 1  C8              Rx   d 8 13 01 54 00 00 00 00 00
   4.220000 1  C8              Rx   d 8 1E 01 54 00 00 00 00 00
   4.230000 1  C8              Rx   d 8 29 01 54 00 00 00 00 00
   4.240000 1  C8              Rx   d 8 34 01 54 00 00 00 00 00
   4.250000 1  C8              Rx   d 8 3E 01 55 00 00 00 00 00
   4.260000 1  C8              Rx   d 8 48 01 55 00 00 00 00 00
   4.270000 1  C8              Rx   d 8 51 01 55 00 00 00 00 00
   4.280000 1  C8              Rx   d 8 5A 01 55 00 00 00 00 00
   4.290000 1  C8              Rx   d 8 63 01 55 00 00 00 00 00
   4.300000 1  C8              Rx   d 8 6C 01 56 00 00 00 00 00
   4.310000 1  C8              Rx   d 8 74 01 56 00 00 00 00 00
   4.320000 1  C8              Rx   d 8 7B 01 56 00 00 00 00 00
   4.330000 1  C8              Rx   d 8 83 01 56 00 00 00 00 00
   4.340000 1  C8              Rx   d 8 8A 01 56 00 00 00 00 00
   4.350000 1  C8              Rx   d 8 90 01 57 00 00 00 00 00
   4.360000 1  C8              Rx   d 8 97 01 57 00 00 00 00 00
   4.370000 1  C8              Rx   d 8 9C 01 57 00 00 00 00 00
   4.380000 1  C8              Rx   d 8 A2 01 57 00 00 00 00 00
   4.390000 1  C8              Rx   d 8 A7 01 57 00 00 00 00 00
   4.400000 1  C8              Rx   d 8 AB 01 58 00 00 00 00 00
   4.410000 1  C8              Rx   d 8 B0 01 58 00 00 00 00 00
   4.420000 1  C8              Rx   d 8 B3 01 58 00 00 00 00 00
   4.430000 1  C8              Rx   d 8 B7 01 58 00 00 00 00 00
   4.440000 1  C8              Rx   d 8 BA 01 58 00 00 00 00 00
   4.450000 1  C8              Rx   d 8 BC 01 59 00 00 00 00 00
   4.460000 1  C8              Rx   d 8 BE 01 59 00 00 00 00 00
   4.470000 1  C8              Rx   d 8 C0 01 59 00 00 00 00 00
   4.480000 1  C8              Rx   d 8 C1 01 59 00 00 00 00 00
   4.490000 1  C8              Rx   d 8 C1 01 59 00 00 00 00 00
   4.500000 1  C8              Rx   d 8 C2 01 5A 00 00 00 00 00
   4.510000 1  C8              Rx   d 8 C1 01 5A 00 00 00 00 00
   4.520000 1  C8              Rx   d 8 C1 01 5A 00 00 00 00 00
   4.530000 1  C8              Rx   d 8 C0 01 5A 00 00 00 00 00
   4.540000 1  C8              Rx   d 8 BE 01 5A 00 00 00 00 00
   4.550000 1  C8              Rx   d 8 BC 01 5B 00 00 00 00 00
   4.560000 1  C8              Rx   d 8 BA 01 5B 00 00 00 00 00
   4.570000 1  C8              Rx   d 8 B7 01 5B 00 00 00 00 00
   4.580000 1  C8              Rx   d 8 B3 01 5B 00 00 00 00 00
   4.590000 1  C8              Rx   d 8 B0 01 5B 00 00 00 00 00
   4.600000 1  C8              Rx   d 8 AB 01 5C 00 00 00 00 00
   4.610000 1  C8              Rx   d 8 A7 01 5C 00 00 00 00 00
   4.620000 1  C8              Rx   d 8 A2 01 5C 00 00 00 00 00
   4.630000 1  C8              Rx   d 8 9C 01 5C 00 00 00 00 00
   4.640000 1  C8              Rx   d 8 97 01 5C 00 00 00 00 00
   4.650000 1  C8              Rx   d 8 90 01 5D 00 00 00 00 00
   4.660000 1  C8              Rx   d 8 8A 01 5D 00 00 00 00 00
   4.670000 1  C8              Rx   d 8 83 01 5D 00 00 00 00 00
   4.680000 1  C8              Rx   d 8 7B 01 5D 00 00 00 00 00
   4.690000 1  C8              Rx   d 8 74 01 5D 00 00 00 00 00
   4.700000 1  C8              Rx   d 8 6C 01 5E 00 00 00 00 00
   4.710000 1  C8              Rx   d 8 63 01 5E 00 00 00 00 00
   4.720000 1  C8              Rx   d 8 5A 01 5E 00 00 00 00 00
   4.730000 1  C8              Rx   d 8 51 01 5E 00 00 00 00 00
   4.740000 1  C8              Rx   d 8 48 01 5E 00 00 00 00 00
   4.750000 1  C8              Rx   d 8 3E 01 5F 00 00 00 00 00
   4.760000 1  C8              Rx   d 8 34 01 5F 00 00 00 00 00
   4.770000 1  C8              Rx   d 8 29 01 5F 00 00 00 00 00
   4.780000 1  C8              Rx   d 8 1E 01 5F 00 00 00 00 00
   4.790000 1  C8              Rx   d 8 13 01 5F 00 00 00 00 00
   4.800000 1  C8              Rx   d 8 08 01 60 00 00 00 00 00
   4.810000 1  C8              Rx   d 8 FC 00 60 00 00 00 00 00
   4.820000 1  C8              Rx   d 8 F1 00 60 00 00 00 00 00
   4.830000 1  C8              Rx   d 8 E5 00 60 00 00 00 00 00
   4.840000 1  C8              Rx   d 8 D8 00 60 00 00 00 00 00
   4.850000 1  C8              Rx   d 8 CC 00 61 00 00 00 00 00
   4.860000 1  C8              Rx   d 8 BF 00 61 00 00 00 00 00
   4.870000 1  C8              Rx   d 8 B2 00 61 00 00 00 00 00
   4.880000 1  C8              Rx   d 8 A5 00 61 00 00 00 00 00
   4.890000 1  C8              Rx   d 8 98 00 61 00 00 00 00 00
   4.900000 1  C8              Rx   d 8 8B 00 62 00 00 00 00 00
   4.910000 1  C8              Rx   d 8 7D 00 62 00 00 00 00 00
   4.920000 1  C8              Rx   d 8 6F 00 62 00 00 00 00 00
   4.930000 1  C8              Rx   d 8 62 00 62 00 00 00 00 00
   4.940000 1  C8              Rx   d 8 54 00 62 00 00 00 00 00
   4.950000 1  C8              Rx   d 8 46 00 63 00 00 00 00 00
   4.960000 1  C8              Rx   d 8 38 00 63 00 00 00 00 00
   4.970000 1  C8              Rx   d 8 2A 00 63 00 00 00 00 00
   4.980000 1  C8              Rx   d 8 1C 00 63 00 00 00 00 00
   4.990000 1  C8              Rx   d 8 0E 00 63 00 00 00 00 00
   5.000000 1  C8              Rx   d 8 00 00 64 00 00 00 00 00
   5.010000 1  C8              Rx   d 8 F2 FF 64 00 00 00 00 00
   5.020000 1  C8              Rx   d 8 E4 FF 64 00 00 00 00 00
   5.030000 1  C8              Rx   d 8 D6 FF 64 00 00 00 00 00
   5.040000 1  C8              Rx   d 8 C8 FF 64 00 00 00 00 00
   5.050000 1  C8              Rx   d 8 BA FF 64 00 00 00 00 00
   5.060000 1  C8              Rx   d 8 AC FF 64 00 00 00 00 00
   5.070000 1  C8              Rx   d 8 9E FF 64 00 00 00 00 00
   5.080000 1  C8              Rx   d 8 91 FF 64 00 00 00 00 00
   5.090000 1  C8              Rx   d 8 83 FF 64 00 00 00 00 00
   5.100000 1  C8              Rx   d 8 75 FF 64 00 00 00 00 00
   5.110000 1  C8              Rx   d 8 68 FF 64 00 00 00 00 00
   5.120000 1  C8              Rx   d 8 5B FF 64 00 00 00 00 00
   5.130000 1  C8              Rx   d 8 4E FF 64 00 00 00 00 00
   5.140000 1  C8              Rx   d 8 41 FF 64 00 00 00 00 00
   5.150000 1  C8              Rx   d 8 34 FF 64 00 00 00 00 00
   5.160000 1  C8              Rx   d 8 28 FF 64 00 00 00 00 00
   5.170000 1  C8              Rx   d 8 1B FF 64 00 00 00 00 00
   5.180000 1  C8              Rx   d 8 0F FF 64 00 00 00 00 00
   5.190000 1  C8              Rx   d 8 04 FF 64 00 00 00 00 00
   5.200000 1  C8              Rx   d 8 F8 FE 64 00 00 00 00 00
   5.210000 1  C8              Rx   d 8 ED FE 64 00 00 00 00 00
   5.220000 1  C8              Rx   d 8 E2 FE 64 00 00 00 00 00
   5.230000 1  C8              Rx   d 8 D7 FE 64 00 00 00 00 00
   5.240000 1  C8              Rx   d 8 CC FE 64 00 00 00 00 00
   5.250000 1  C8              Rx   d 8 C2 FE 64 00 00 00 00 00
   5.260000 1  C8              Rx   d 8 B8 FE 64 00 00 00 00 00
   5.270000 1  C8              Rx   d 8 AF FE 64 00 00 00 00 00
   5.280000 1  C8              Rx   d 8 A6 FE 64 00 00 00 00 00
   5.290000 1  C8              Rx   d 8 9D FE 64 00 00 00 00 00
   5.300000 1  C8              Rx   d 8 94 FE 64 00 00 00 00 00
   5.310000 1  C8              Rx   d 8 8C FE 64 00 00 00 00 00
   5.320000 1  C8              Rx   d 8 85 FE 64 00 00 00 00 00
   5.330000 1  C8              Rx   d 8 7D FE 64 00 00 00 00 00
   5.340000 1  C8              Rx   d 8 76 FE 64 00 00 00 00 00
   5.350000 1  C8              Rx   d 8 70 FE 64 00 00 00 00 00
   5.360000 1  C8              Rx   d 8 69 FE 64 00 00 00 00 00
   5.370000 1  C8              Rx   d 8 64 FE 64 00 00 00 00 00
   5.380000 1  C8              Rx   d 8 5E FE 64 00 00 00 00 00
   5.390000 1  C8              Rx   d 8 59 FE 64 00 00 00 00 00
   5.400000 1  C8              Rx   d 8 55 FE 64 00 00 00 00 00
   5.410000 1  C8              Rx   d 8 50 FE 64 00 00 00 00 00
   5.420000 1  C8              Rx   d 8 4D FE 64 00 00 00 00 00
   5.430000 1  C8              Rx   d 8 49 FE 64 00 00 00 00 00
   5.440000 1  C8              Rx   d 8 46 FE 64 00 00 00 00 00
   5.450000 1  C8              Rx   d 8 44 FE 64 00 00 00 00 00
   5.460000 1  C8              Rx   d 8 42 FE 64 00 00 00 00 00
   5.470000 1  C8              Rx   d 8 40 FE 64 00 00 00 00 00
   5.480000 1  C8              Rx   d 8 3F FE 64 00 00 00 00 00
   5.490000 1  C8              Rx   d 8 3F FE 64 00 00 00 00 00
   5.500000 1  C8              Rx   d 8 3E FE 64 00 00 00 00 00
   5.510000 1  C8              Rx   d 8 3F FE 64 00 00 00 00 00
   5.520000 1  C8              Rx   d 8 3F FE 64 00 00 00 00 00
   5.530000 1  C8              Rx   d 8 40 FE 64 00 00 00 00 00
   5.540000 1  C8              Rx   d 8 42 FE 64 00 00 00 00 00
   5.550000 1  C8              Rx   d 8 44 FE 64 00 00 00 00 00
   5.560000 1  C8              Rx   d 8 46 FE 64 00 00 00 00 00
   5.570000 1  C8              Rx   d 8 49 FE 64 00 00 00 00 00
   5.580000 1  C8              Rx   d 8 4D FE 64 00 00 00 00 00
   5.590000 1  C8              Rx   d 8 50 FE 64 00 00 00 00 00
   5.600000 1  C8              Rx   d 8 55 FE 64 00 00 00 00 00
   5.610000 1  C8              Rx   d 8 59 FE 64 00 00 00 00 00
   5.620000 1  C8              Rx   d 8 5E FE 64 00 00 00 00 00
   5.630000 1  C8              Rx   d 8 64 FE 64 00 00 00 00 00
   5.640000 1  C8              Rx   d 8 69 FE 64 00 00 00 00 00
   5.650000 1  C8              Rx   d 8 70 FE 64 00 00 00 00 00
   5.660000 1  C8              Rx   d 8 76 FE 64 00 00 00 00 00
   5.670000 1  C8              Rx   d 8 7D FE 64 00 00 00 00 00
   5.680000 1  C8              Rx   d 8 85 FE 64 00 00 00 00 00
   5.690000 1  C8              Rx   d 8 8C FE 64 00 00 00 00 00
   5.700000 1  C8              Rx   d 8 94 FE 64 00 00 00 00 00
   5.710000 1  C8              Rx   d 8 9D FE 64 00 00 00 00 00
   5.720000 1  C8              Rx   d 8 A6 FE 64 00 00 00 00 00
   5.730000 1  C8              Rx   d 8 AF FE 64 00 00 00 00 00
   5.740000 1  C8              Rx   d 8 B8 FE 64 00 00 00 00 00
   5.750000 1  C8              Rx   d 8 C2 FE 64 00 00 00 00 00
   5.760000 1  C8              Rx   d 8 CC FE 64 00 00 00 00 00
   5.770000 1  C8              Rx   d 8 D7 FE 64 00 00 00 00 00
   5.780000 1  C8              Rx   d 8 E2 FE 64 00 00 00 00 00
   5.790000 1  C8              Rx   d 8 ED FE 64 00 00 00 00 00
   5.800000 1  C8              Rx   d 8 F8 FE 64 00 00 00 00 00
   5.810000 1  C8              Rx   d 8 04 FF 64 00 00 00 00 00
   5.820000 1  C8              Rx   d 8 0F FF 64 00 00 00 00 00
   5.830000 1  C8              Rx   d 8 1B FF 64 00 00 00 00 00
   5.840000 1  C8              Rx   d 8 28 FF 64 00 00 00 00 00
   5.850000 1  C8              Rx   d 8 34 FF 64 00 00 00 00 00
   5.860000 1  C8              Rx   d 8 41 FF 64 00 00 00 00 00
   5.870000 1  C8              Rx   d 8 4E FF 64 00 00 00 00 00
   5.880000 1  C8              Rx   d 8 5B FF 64 00 00 00 00 00
   5.890000 1  C8              Rx   d 8 68 FF 64 00 00 00 00 00
   5.900000 1  C8              Rx   d 8 75 FF 64 00 00 00 00 00
   5.910000 1  C8              Rx   d 8 83 FF 64 00 00 00 00 00
   5.920000 1  C8              Rx   d 8 91 FF 64 00 00 00 00 00
   5.930000 1  C8              Rx   d 8 9E FF 64 00 00 00 00 00
   5.940000 1  C8              Rx   d 8 AC FF 64 00 00 00 00 00
   5.950000 1  C8              Rx   d 8 BA FF 64 00 00 00 00 00
   5.960000 1  C8              Rx   d 8 C8 FF 64 00 00 00 00 00
   5.970000 1  C8              Rx   d 8 D6 FF 64 00 00 00 00 00
   5.980000 1  C8              Rx   d 8 E4 FF 64 00 00 00 00 00
   5.990000 1  C8              Rx   d 8 F2 FF 64 00 00 00 00 00
   6.000000 1  C8              Rx   d 8 00 00 64 00 00 00 00 00
   6.010000 1  C8              Rx   d 8 0E 00 64 00 00 00 00 00
   6.020000 1  C8              Rx   d 8 1C 00 64 00 00 00 00 00
   6.030000 1  C8              Rx   d 8 2A 00 64 00 00 00 00 00
   6.040000 1  C8              Rx   d 8 38 00 64 00 00 00 00 00
   6.050000 1  C8              Rx   d 8 46 00 64 00 00 00 00 00
   6.060000 1  C8              Rx   d 8 54 00 64 00 00 00 00 00
   6.070000 1  C8              Rx   d 8 62 00 64 00 00 00 00 00
   6.080000 1  C8              Rx   d 8 6F 00 64 00 00 00 00 00
   6.090000 1  C8              Rx   d 8 7D 00 64 00 00 00 00 00
   6.100000 1  C8              Rx   d 8 8B 00 64 00 00 00 00 00
   6.110000 1  C8              Rx   d 8 98 00 64 00 00 00 00 00
   6.120000 1  C8              Rx   d 8 A5 00 64 00 00 00 00 00
   6.130000 1  C8              Rx   d 8 B2 00 64 00 00 00 00 00
   6.140000 1  C8              Rx   d 8 BF 00 64 00 00 00 00 00
   6.150000 1  C8              Rx   d 8 CC 00 64 00 00 00 00 00
   6.160000 1  C8              Rx   d 8 D8 00 64 00 00 00 00 00
   6.170000 1  C8              Rx   d 8 E5 00 64 00 00 00 00 00
   6.180000 1  C8              Rx   d 8 F1 00 64 00 00 00 00 00
   6.190000 1  C8              Rx   d 8 FC 00 64 00 00 00 00 00
   6.200000 1  C8              Rx   d 8 08 01 64 00 00 00 00 00
   6.210000 1  C8              Rx   d 8 13 01 64 00 00 00 00 00
   6.220000 1  C8              Rx   d 8 1E 01 64 00 00 00 00 00
   6.230000 1  C8              Rx   d 8 29 01 64 00 00 00 00 00
   6.240000 1  C8              Rx   d 8 34 01 64 00 00 00 00 00
   6.250000 1  C8              Rx   d 8 3E 01 64 00 00 00 00 00
   6.260000 1  C8              Rx   d 8 48 01 64 00 00 00 00 00
   6.270000 1  C8              Rx   d 8 51 01 64 00 00 00 00 00
   6.280000 1  C8              Rx   d 8 5A 01 64 00 00 00 00 00
   6.290000 1  C8              Rx   d 8 63 01 64 00 00 00 00 00
   6.300000 1  C8              Rx   d 8 6C 01 64 00 00 00 00 00
   6.310000 1  C8              Rx   d 8 74 01 64 00 00 00 00 00
   6.320000 1  C8              Rx   d 8 7B 01 64 00 00 00 00 00
   6.330000 1  C8              Rx   d 8 83 01 64 00 00 00 00 00
   6.340000 1  C8              Rx   d 8 8A 01 64 00 00 00 00 00
   6.350000 1  C8              Rx   d 8 90 01 64 00 00 00 00 00
   6.360000 1  C8              Rx   d 8 97 01 64 00 00 00 00 00
   6.370000 1  C8              Rx   d 8 9C 01 64 00 00 00 00 00
   6.380000 1  C8              Rx   d 8 A2 01 64 00 00 00 00 00
   6.390000 1  C8              Rx   d 8 A7 01 64 00 00 00 00 00
   6.400000 1  C8              Rx   d 8 AB 01 64 00 00 00 00 00
   6.410000 1  C8              Rx   d 8 B0 01 64 00 00 00 00 00
   6.420000 1  C8              Rx   d 8 B3 01 64 00 00 00 00 00
   6.430000 1  C8              Rx   d 8 B7 01 64 00 00 00 00 00
   6.440000 1  C8              Rx   d 8 BA 01 64 00 00 00 00 00
   6.450000 1  C8              Rx   d 8 BC 01 64 00 00 00 00 00
   6.460000 1  C8              Rx   d 8 BE 01 64 00 00 00 00 00
   6.470000 1  C8              Rx   d 8 C0 01 64 00 00 00 00 00
   6.480000 1  C8              Rx   d 8 C1 01 64 00 00 00 00 00
   6.490000 1  C8              Rx   d 8 C1 01 64 00 00 00 00 00
   6.500000 1  C8              Rx   d 8 C2 01 64 00 00 00 00 00
   6.510000 1  C8              Rx   d 8 C1 01 64 00 00 00 00 00
   6.520000 1  C8              Rx   d 8 C1 01 64 00 00 00 00 00
   6.530000 1  C8              Rx   d 8 C0 01 64 00 00 00 00 00
   6.540000 1  C8              Rx   d 8 BE 01 64 00 00 00 00 00
   6.550000 1  C8              Rx   d 8 BC 01 64 00 00 00 00 00
   6.560000 1  C8              Rx   d 8 BA 01 64 00 00 00 00 00
   6.570000 1  C8              Rx   d 8 B7 01 64 00 00 00 00 00
   6.580000 1  C8              Rx   d 8 B3 01 64 00 00 00 00 00
   6.590000 1  C8              Rx   d 8 B0 01 64 00 00 00 00 00
   6.600000 1  C8              Rx   d 8 AB 01 64 00 00 00 00 00
   6.610000 1  C8              Rx   d 8 A7 01 64 00 00 00 00 00
   6.620000 1  C8              Rx   d 8 A2 01 64 00 00 00 00 00
   6.630000 1  C8              Rx   d 8 9C 01 64 00 00 00 00 00
   6.640000 1  C8              Rx   d 8 97 01 64 00 00 00 00 00
   6.650000 1  C8              Rx   d 8 90 01 64 00 00 00 00 00
   6.660000 1  C8              Rx   d 8 8A 01 64 00 00 00 00 00
   6.670000 1  C8              Rx   d 8 83 01 64 00 00 00 00 00
   6.680000 1  C8              Rx   d 8 7B 01 64 00 00 00 00 00
   6.690000 1  C8              Rx   d 8 74 01 64 00 00 00 00 00
   6.700000 1  C8              Rx   d 8 6C 01 64 00 00 00 00 00
   6.710000 1  C8              Rx   d 8 63 01 64 00 00 00 00 00
   6.720000 1  C8              Rx   d 8 5A 01 64 00 00 00 00 00
   6.730000 1  C8              Rx   d 8 51 01 64 00 00 00 00 00
   6.740000 1  C8              Rx   d 8 48 01 64 00 00 00 00 00
   6.750000 1  C8              Rx   d 8 3E 01 64 00 00 00 00 00
   6.760000 1  C8              Rx   d 8 34 01 64 00 00 00 00 00
   6.770000 1  C8              Rx   d 8 29 01 64 00 00 00 00 00
   6.780000 1  C8              Rx   d 8 1E 01 64 00 00 00 00 00
   6.790000 1  C8              Rx   d 8 13 01 64 00 00 00 00 00
   6.800000 1  C8              Rx   d 8 08 01 64 00 00 00 00 00
   6.810000 1  C8              Rx   d 8 FC 00 64 00 00 00 00 00
   6.820000 1  C8              Rx   d 8 F1 00 64 00 00 00 00 00
   6.830000 1  C8              Rx   d 8 E5 00 64 00 00 00 00 00
   6.840000 1  C8              Rx   d 8 D8 00 64 00 00 00 00 00
   6.850000 1  C8              Rx   d 8 CC 00 64 00 00 00 00 00
   6.860000 1  C8              Rx   d 8 BF 00 64 00 00 00 00 00
   6.870000 1  C8              Rx   d 8 B2 00 64 00 00 00 00 00
   6.880000 1  C8              Rx   d 8 A5 00 64 00 00 00 00 00
   6.890000 1  C8              Rx   d 8 98 00 64 00 00 00 00 00
   6.900000 1  C8              Rx   d 8 8B 00 64 00 00 00 00 00
   6.910000 1  C8              Rx   d 8 7D 00 64 00 00 00 00 00
   6.920000 1  C8              Rx   d 8 6F 00 64 00 00 00 00 00
   6.930000 1  C8              Rx   d 8 62 00 64 00 00 00 00 00
   6.940000 1  C8              Rx   d 8 54 00 64 00 00 00 00 00
   6.950000 1  C8              Rx   d 8 46 00 64 00 00 00 00 00
   6.960000 1  C8              Rx   d 8 38 00 64 00 00 00 00 00
   6.970000 1  C8              Rx   d 8 2A 00 64 00 00 00 00 00
   6.980000 1  C8              Rx   d 8 1C 00 64 00 00 00 00 00
   6.990000 1  C8              Rx   d 8 0E 00 64 00 00 00 00 00
   7.000000 1  C8              Rx   d 8 00 00 64 00 00 00 00 00
   7.010000 1  C8              Rx   d 8 F2 FF 64 00 00 00 00 00
   7.020000 1  C8              Rx   d 8 E4 FF 64 00 00 00 00 00
   7.030000 1  C8              Rx   d 8 D6 FF 64 00 00 00 00 00
   7.040000 1  C8              Rx   d 8 C8 FF 64 00 00 00 00 00
   7.050000 1  C8              Rx   d 8 BA FF 64 00 00 00 00 00
   7.060000 1  C8              Rx   d 8 AC FF 64 00 00 00 00 00
   7.070000 1  C8              Rx   d 8 9E FF 64 00 00 00 00 00
   7.080000 1  C8              Rx   d 8 91 FF 64 00 00 00 00 00
   7.090000 1  C8              Rx   d 8 83 FF 64 00 00 00 00 00
   7.100000 1  C8              Rx   d 8 75 FF 64 00 00 00 00 00
   7.110000 1  C8              Rx   d 8 68 FF 64 00 00 00 00 00
   7.120000 1  C8              Rx   d 8 5B FF 64 00 00 00 00 00
   7.130000 1  C8              Rx   d 8 4E FF 64 00 00 00 00 00
   7.140000 1  C8              Rx   d 8 41 FF 64 00 00 00 00 00
   7.150000 1  C8              Rx   d 8 34 FF 64 00 00 00 00 00
   7.160000 1  C8              Rx   d 8 28 FF 64 00 00 00 00 00
   7.170000 1  C8              Rx   d 8 1B FF 64 00 00 00 00 00
   7.180000 1  C8              Rx   d 8 0F FF 64 00 00 00 00 00
   7.190000 1  C8              Rx   d 8 04 FF 64 00 00 00 00 00
   7.200000 1  C8              Rx   d 8 F8 FE 64 00 00 00 00 00
   7.210000 1  C8              Rx   d 8 ED FE 64 00 00 00 00 00
   7.220000 1  C8              Rx   d 8 E2 FE 64 00 00 00 00 00
   7.230000 1  C8              Rx   d 8 D7 FE 64 00 00 00 00 00
   7.240000 1  C8              Rx   d 8 CC FE 64 00 00 00 00 00
   7.250000 1  C8              Rx   d 8 C2 FE 64 00 00 00 00 00
   7.260000 1  C8              Rx   d 8 B8 FE 64 00 00 00 00 00
   7.270000 1  C8              Rx   d 8 AF FE 64 00 00 00 00 00
   7.280000 1  C8              Rx   d 8 A6 FE 64 00 00 00 00 00
   7.290000 1  C8              Rx   d 8 9D FE 64 00 00 00 00 00
   7.300000 1  C8              Rx   d 8 94 FE 64 00 00 00 00 00
   7.310000 1  C8              Rx   d 8 8C FE 64 00 00 00 00 00
   7.320000 1  C8              Rx   d 8 85 FE 64 00 00 00 00 00
   7.330000 1  C8              Rx   d 8 7D FE 64 00 00 00 00 00
   7.340000 1  C8              Rx   d 8 76 FE 64 00 00 00 00 00
   7.350000 1  C8              Rx   d 8 70 FE 64 00 00 00 00 00
   7.360000 1  C8              Rx   d 8 69 FE 64 00 00 00 00 00
   7.370000 1  C8              Rx   d 8 64 FE 64 00 00 00 00 00
   7.380000 1  C8              Rx   d 8 5E FE 64 00 00 00 00 00
   7.390000 1  C8              Rx   d 8 59 FE 64 00 00 00 00 00
   7.400000 1  C8              Rx   d 8 55 FE 64 00 00 00 00 00
   7.410000 1  C8              Rx   d 8 50 FE 64 00 00 00 00 00
   7.420000 1  C8              Rx   d 8 4D FE 64 00 00 00 00 00
   7.430000 1  C8              Rx   d 8 49 FE 64 00 00 00 00 00
   7.440000 1  C8              Rx   d 8 46 FE 64 00 00 00 00 00
   7.450000 1  C8              Rx   d 8 44 FE 64 00 00 00 00 00
   7.460000 1  C8              Rx   d 8 42 FE 64 00 00 00 00 00
   7.470000 1  C8              Rx   d 8 40 FE 64 00 00 00 00 00
   7.480000 1  C8              Rx   d 8 3F FE 64 00 00 00 00 00
   7.490000 1  C8              Rx   d 8 3F FE 64 00 00 00 00 00
   7.500000 1  C8              Rx   d 8 3E FE 64 00 00 00 00 00
   7.510000 1  C8              Rx   d 8 3F FE 64 00 00 00 00 00
   7.520000 1  C8              Rx   d 8 3F FE 64 00 00 00 00 00
   7.530000 1  C8              Rx   d 8 40 FE 64 00 00 00 00 00
   7.540000 1  C8              Rx   d 8 42 FE 64 00 00 00 00 00
   7.550000 1  C8              Rx   d 8 44 FE 64 00 00 00 00 00
   7.560000 1  C8              Rx   d 8 46 FE 64 00 00 00 00 00
   7.570000 1  C8              Rx   d 8 49 FE 64 00 00 00 00 00
   7.580000 1  C8              Rx   d 8 4D FE 64 00 00 00 00 00
   7.590000 1  C8              Rx   d 8 50 FE 64 00 00 00 00 00
   7.600000 1  C8              Rx   d 8 55 FE 64 00 00 00 00 00
   7.610000 1  C8              Rx   d 8 59 FE 64 00 00 00 00 00
   7.620000 1  C8              Rx   d 8 5E FE 64 00 00 00 00 00
   7.630000 1  C8              Rx   d 8 64 FE 64 00 00 00 00 00
   7.640000 1  C8              Rx   d 8 69 FE 64 00 00 00 00 00
   7.650000 1  C8              Rx   d 8 70 FE 64 00 00 00 00 00
   7.660000 1  C8              Rx   d 8 76 FE 64 00 00 00 00 00
   7.670000 1  C8              Rx   d 8 7D FE 64 00 00 00 00 00
   7.680000 1  C8              Rx   d 8 85 FE 64 00 00 00 00 00
   7.690000 1  C8              Rx   d 8 8C FE 64 00 00 00 00 00
   7.700000 1  C8              Rx   d 8 94 FE 64 00 00 00 00 00
   7.710000 1  C8              Rx   d 8 9D FE 64 00 00 00 00 00
   7.720000 1  C8              Rx   d 8 A6 FE 64 00 00 00 00 00
   7.730000 1  C8              Rx   d 8 AF FE 64 00 00 00 00 00
   7.740000 1  C8              Rx   d 8 B8 FE 64 00 00 00 00 00
   7.750000 1  C8              Rx   d 8 C2 FE 64 00 00 00 00 00
   7.760000 1  C8              Rx   d 8 CC FE 64 00 00 00 00 00
   7.770000 1  C8              Rx   d 8 D7 FE 64 00 00 00 00 00
   7.780000 1  C8              Rx   d 8 E2 FE 64 00 00 00 00 00
   7.790000 1  C8              Rx   d 8 ED FE 64 00 00 00 00 00
   7.800000 1  C8              Rx   d 8 F8 FE 64 00 00 00 00 00
   7.810000 1  C8              Rx   d 8 04 FF 64 00 00 00 00 00
   7.820000 1  C8              Rx   d 8 0F FF 64 00 00 00 00 00
   7.830000 1  C8              Rx   d 8 1B FF 64 00 00 00 00 00
   7.840000 1  C8              Rx   d 8 28 FF 64 00 00 00 00 00
   7.850000 1  C8              Rx   d 8 34 FF 64 00 00 00 00 00
   7.860000 1  C8              Rx   d 8 41 FF 64 00 00 00 00 00
   7.870000 1  C8              Rx   d 8 4E FF 64 00 00 00 00 00
   7.880000 1  C8              Rx   d 8 5B FF 64 00 00 00 00 00
   7.890000 1  C8              Rx   d 8 68 FF 64 00 00 00 00 00
   7.900000 1  C8              Rx   d 8 75 FF 64 00 00 00 00 00
   7.910000 1  C8              Rx   d 8 83 FF 64 00 00 00 00 00
   7.920000 1  C8              Rx   d 8 91 FF 64 00 00 00 00 00
   7.930000 1  C8              Rx   d 8 9E FF 64 00 00 00 00 00
   7.940000 1  C8              Rx   d 8 AC FF 64 00 00 00 00 00
   7.950000 1  C8              Rx   d 8 BA FF 64 00 00 00 00 00
   7.960000 1  C8              Rx   d 8 C8 FF 64 00 00 00 00 00
   7.970000 1  C8              Rx   d 8 D6 FF 64 00 00 00 00 00
   7.980000 1  C8              Rx   d 8 E4 FF 64 00 00 00 00 00
   7.990000 1  C8              Rx   d 8 F2 FF 64 00 00 00 00 00
   8.000000 1  C8              Rx   d 8 00 00 64 AA 00 00 00 00
   8.010000 1  C8              Rx   d 8 0E 00 63 AA 00 00 00 00
   8.020000 1  C8              Rx   d 8 1C 00 63 AA 00 00 00 00
   8.030000 1  C8              Rx   d 8 2A 00 62 AA 00 00 00 00
   8.040000 1  C8              Rx   d 8 38 00 61 AA 00 00 00 00
   8.050000 1  C8              Rx   d 8 46 00 61 AA 00 00 00 00
   8.060000 1  C8              Rx   d 8 54 00 60 AA 00 00 00 00
   8.070000 1  C8              Rx   d 8 62 00 60 AA 00 00 00 00
   8.080000 1  C8              Rx   d 8 6F 00 60 AA 00 00 00 00
   8.090000 1  C8              Rx   d 8 7D 00 5F AA 00 00 00 00
   8.100000 1  C8              Rx   d 8 8B 00 5F AA 00 00 00 00
   8.110000 1  C8              Rx   d 8 98 00 5E AA 00 00 00 00
   8.120000 1  C8              Rx   d 8 A5 00 5D AA 00 00 00 00
   8.130000 1  C8              Rx   d 8 B2 00 5D AA 00 00 00 00
   8.140000 1  C8              Rx   d 8 BF 00 5C AA 00 00 00 00
   8.150000 1  C8              Rx   d 8 CC 00 5C AA 00 00 00 00
   8.160000 1  C8              Rx   d 8 D8 00 5C AA 00 00 00 00
   8.170000 1  C8              Rx   d 8 E5 00 5B AA 00 00 00 00
   8.180000 1  C8              Rx   d 8 F1 00 5B AA 00 00 00 00
   8.190000 1  C8              Rx   d 8 FC 00 5A AA 00 00 00 00
   8.200000 1  C8              Rx   d 8 08 01 5A AA 00 00 00 00
   8.210000 1  C8              Rx   d 8 13 01 59 AA 00 00 00 00
   8.220000 1  C8              Rx   d 8 1E 01 58 AA 00 00 00 00
   8.230000 1  C8              Rx   d 8 29 01 58 AA 00 00 00 00
   8.240000 1  C8              Rx   d 8 34 01 57 AA 00 00 00 00
   8.250000 1  C8              Rx   d 8 3E 01 57 AA 00 00 00 00
   8.260000 1  C8              Rx   d 8 48 01 57 AA 00 00 00 00
   8.270000 1  C8              Rx   d 8 51 01 56 AA 00 00 00 00
   8.280000 1  C8              Rx   d 8 5A 01 56 AA 00 00 00 00
   8.290000 1  C8              Rx   d 8 63 01 55 AA 00 00 00 00
   8.300000 1  C8              Rx   d 8 6C 01 54 AA 00 00 00 00
   8.310000 1  C8              Rx   d 8 74 01 54 AA 00 00 00 00
   8.320000 1  C8              Rx   d 8 7B 01 53 AA 00 00 00 00
   8.330000 1  C8              Rx   d 8 83 01 53 AA 00 00 00 00
   8.340000 1  C8              Rx   d 8 8A 01 53 AA 00 00 00 00
   8.350000 1  C8              Rx   d 8 90 01 52 AA 00 00 00 00
   8.360000 1  C8              Rx   d 8 97 01 52 AA 00 00 00 00
   8.370000 1  C8              Rx   d 8 9C 01 51 AA 00 00 00 00
   8.380000 1  C8              Rx   d 8 A2 01 50 AA 00 00 00 00
   8.390000 1  C8              Rx   d 8 A7 01 50 AA 00 00 00 00
   8.400000 1  C8              Rx   d 8 AB 01 4F AA 00 00 00 00
   8.410000 1  C8              Rx   d 8 B0 01 4F AA 00 00 00 00
   8.420000 1  C8              Rx   d 8 B3 01 4F AA 00 00 00 00
   8.430000 1  C8              Rx   d 8 B7 01 4E AA 00 00 00 00
   8.440000 1  C8              Rx   d 8 BA 01 4E AA 00 00 00 00
   8.450000 1  C8              Rx   d 8 BC 01 4D AA 00 00 00 00
   8.460000 1  C8              Rx   d 8 BE 01 4C AA 00 00 00 00
   8.470000 1  C8              Rx   d 8 C0 01 4C AA 00 00 00 00
   8.480000 1  C8              Rx   d 8 C1 01 4B AA 00 00 00 00
   8.490000 1  C8              Rx   d 8 C1 01 4B AA 00 00 00 00
   8.500000 1  C8              Rx   d 8 C2 01 4B AA 00 00 00 00
   8.510000 1  C8              Rx   d 8 C1 01 4A AA 00 00 00 00
   8.520000 1  C8              Rx   d 8 C1 01 4A AA 00 00 00 00
   8.530000 1  C8              Rx   d 8 C0 01 49 AA 00 00 00 00
   8.540000 1  C8              Rx   d 8 BE 01 48 AA 00 00 00 00
   8.550000 1  C8              Rx   d 8 BC 01 48 AA 00 00 00 00
   8.560000 1  C8              Rx   d 8 BA 01 47 AA 00 00 00 00
   8.570000 1  C8              Rx   d 8 B7 01 47 AA 00 00 00 00
   8.580000 1  C8              Rx   d 8 B3 01 47 AA 00 00 00 00
   8.590000 1  C8              Rx   d 8 B0 01 46 AA 00 00 00 00
   8.600000 1  C8              Rx   d 8 AB 01 46 AA 00 00 00 00
   8.610000 1  C8              Rx   d 8 A7 01 45 AA 00 00 00 00
   8.620000 1  C8              Rx   d 8 A2 01 44 AA 00 00 00 00
   8.630000 1  C8              Rx   d 8 9C 01 44 AA 00 00 00 00
   8.640000 1  C8              Rx   d 8 97 01 43 AA 00 00 00 00
   8.650000 1  C8              Rx   d 8 90 01 43 AA 00 00 00 00
   8.660000 1  C8              Rx   d 8 8A 01 43 AA 00 00 00 00
   8.670000 1  C8              Rx   d 8 83 01 42 AA 00 00 00 00
   8.680000 1  C8              Rx   d 8 7B 01 42 AA 00 00 00 00
   8.690000 1  C8              Rx   d 8 74 01 41 AA 00 00 00 00
   8.700000 1  C8              Rx   d 8 6C 01 40 AA 00 00 00 00
   8.710000 1  C8              Rx   d 8 63 01 40 AA 00 00 00 00
   8.720000 1  C8              Rx   d 8 5A 01 3F AA 00 00 00 00
   8.730000 1  C8              Rx   d 8 51 01 3F AA 00 00 00 00
   8.740000 1  C8              Rx   d 8 48 01 3E AA 00 00 00 00
   8.750000 1  C8              Rx   d 8 3E 01 3E AA 00 00 00 00
   8.760000 1  C8              Rx   d 8 34 01 3E AA 00 00 00 00
   8.770000 1  C8              Rx   d 8 29 01 3D AA 00 00 00 00
   8.780000 1  C8              Rx   d 8 1E 01 3D AA 00 00 00 00
   8.790000 1  C8              Rx   d 8 13 01 3C AA 00 00 00 00
   8.800000 1  C8              Rx   d 8 08 01 3B AA 00 00 00 00
   8.810000 1  C8              Rx   d 8 FC 00 3B AA 00 00 00 00
   8.820000 1  C8              Rx   d 8 F1 00 3A AA 00 00 00 00
   8.830000 1  C8              Rx   d 8 E5 00 3A AA 00 00 00 00
   8.840000 1  C8              Rx   d 8 D8 00 3A AA 00 00 00 00
   8.850000 1  C8              Rx   d 8 CC 00 39 AA 00 00 00 00
   8.860000 1  C8              Rx   d 8 BF 00 39 AA 00 00 00 00
   8.870000 1  C8              Rx   d 8 B2 00 38 AA 00 00 00 00
   8.880000 1  C8              Rx   d 8 A5 00 37 AA 00 00 00 00
   8.890000 1  C8              Rx   d 8 98 00 37 AA 00 00 00 00
   8.900000 1  C8              Rx   d 8 8B 00 36 AA 00 00 00 00
   8.910000 1  C8              Rx   d 8 7D 00 36 AA 00 00 00 00
   8.920000 1  C8              Rx   d 8 6F 00 36 AA 00 00 00 00
   8.930000 1  C8              Rx   d 8 62 00 35 AA 00 00 00 00
   8.940000 1  C8              Rx   d 8 54 00 35 AA 00 00 00 00
   8.950000 1  C8              Rx   d 8 46 00 34 AA 00 00 00 00
   8.960000 1  C8              Rx   d 8 38 00 33 AA 00 00 00 00
   8.970000 1  C8              Rx   d 8 2A 00 33 AA 00 00 00 00
   8.980000 1  C8              Rx   d 8 1C 00 32 AA 00 00 00 00
   8.990000 1  C8              Rx   d 8 0E 00 32 AA 00 00 00 00
   9.000000 1  C8              Rx   d 8 00 00 32 AA 00 00 00 00
   9.010000 1  C8              Rx   d 8 F2 FF 31 AA 00 00 00 00
   9.020000 1  C8              Rx   d 8 E4 FF 31 AA 00 00 00 00
   9.030000 1  C8              Rx   d 8 D6 FF 30 AA 00 00 00 00
   9.040000 1  C8              Rx   d 8 C8 FF 2F AA 00 00 00 00
   9.050000 1  C8              Rx   d 8 BA FF 2F AA 00 00 00 00
   9.060000 1  C8              Rx   d 8 AC FF 2E AA 00 00 00 00
   9.070000 1  C8              Rx   d 8 9E FF 2E AA 00 00 00 00
   9.080000 1  C8              Rx   d 8 91 FF 2E AA 00 00 00 00
   9.090000 1  C8              Rx   d 8 83 FF 2D AA 00 00 00 00
   9.100000 1  C8              Rx   d 8 75 FF 2D AA 00 00 00 00
   9.110000 1  C8              Rx   d 8 68 FF 2C AA 00 00 00 00
   9.120000 1  C8              Rx   d 8 5B FF 2B AA 00 00 00 00
   9.130000 1  C8              Rx   d 8 4E FF 2B AA 00 00 00 00
   9.140000 1  C8              Rx   d 8 41 FF 2A AA 00 00 00 00
   9.150000 1  C8              Rx   d 8 34 FF 2A AA 00 00 00 00
   9.160000 1  C8              Rx   d 8 28 FF 29 AA 00 00 00 00
   9.170000 1  C8              Rx   d 8 1B FF 29 AA 00 00 00 00
   9.180000 1  C8              Rx   d 8 0F FF 29 AA 00 00 00 00
   9.190000 1  C8              Rx   d 8 04 FF 28 AA 00 00 00 00
   9.200000 1  C8              Rx   d 8 F8 FE 27 AA 00 00 00 00
   9.210000 1  C8              Rx   d 8 ED FE 27 AA 00 00 00 00
   9.220000 1  C8              Rx   d 8 E2 FE 26 AA 00 00 00 00
   9.230000 1  C8              Rx   d 8 D7 FE 26 AA 00 00 00 00
   9.240000 1  C8              Rx   d 8 CC FE 25 AA 00 00 00 00
   9.250000 1  C8              Rx   d 8 C2 FE 25 AA 00 00 00 00
   9.260000 1  C8              Rx   d 8 B8 FE 25 AA 00 00 00 00
   9.270000 1  C8              Rx   d 8 AF FE 24 AA 00 00 00 00
   9.280000 1  C8              Rx   d 8 A6 FE 24 AA 00 00 00 00
   9.290000 1  C8              Rx   d 8 9D FE 23 AA 00 00 00 00
   9.300000 1  C8              Rx   d 8 94 FE 22 AA 00 00 00 00
   9.310000 1  C8              Rx   d 8 8C FE 22 AA 00 00 00 00
   9.320000 1  C8              Rx   d 8 85 FE 21 AA 00 00 00 00
   9.330000 1  C8              Rx   d 8 7D FE 21 AA 00 00 00 00
   9.340000 1  C8              Rx   d 8 76 FE 21 AA 00 00 00 00
   9.350000 1  C8              Rx   d 8 70 FE 20 AA 00 00 00 00
   9.360000 1  C8              Rx   d 8 69 FE 20 AA 00 00 00 00
   9.370000 1  C8              Rx   d 8 64 FE 1F AA 00 00 00 00
   9.380000 1  C8              Rx   d 8 5E FE 1E AA 00 00 00 00
   9.390000 1  C8              Rx   d 8 59 FE 1E AA 00 00 00 00
   9.400000 1  C8              Rx   d 8 55 FE 1D AA 00 00 00 00
   9.410000 1  C8              Rx   d 8 50 FE 1D AA 00 00 00 00
   9.420000 1  C8              Rx   d 8 4D FE 1D AA 00 00 00 00
   9.430000 1  C8              Rx   d 8 49 FE 1C AA 00 00 00 00
   9.440000 1  C8              Rx   d 8 46 FE 1C AA 00 00 00 00
   9.450000 1  C8              Rx   d 8 44 FE 1B AA 00 00 00 00
   9.460000 1  C8              Rx   d 8 42 FE 1A AA 00 00 00 00
   9.470000 1  C8              Rx   d 8 40 FE 1A AA 00 00 00 00
   9.480000 1  C8              Rx   d 8 3F FE 19 AA 00 00 00 00
   9.490000 1  C8              Rx   d 8 3F FE 19 AA 00 00 00 00
   9.500000 1  C8              Rx   d 8 3E FE 19 AA 00 00 00 00
   9.510000 1  C8              Rx   d 8 3F FE 18 AA 00 00 00 00
   9.520000 1  C8              Rx   d 8 3F FE 18 AA 00 00 00 00
   9.530000 1  C8              Rx   d 8 40 FE 17 AA 00 00 00 00
   9.540000 1  C8              Rx   d 8 42 FE 16 AA 00 00 00 00
   9.550000 1  C8              Rx   d 8 44 FE 16 AA 00 00 00 00
   9.560000 1  C8              Rx   d 8 46 FE 15 AA 00 00 00 00
   9.570000 1  C8              Rx   d 8 49 FE 15 AA 00 00 00 00
   9.580000 1  C8              Rx   d 8 4D FE 15 AA 00 00 00 00
   9.590000 1  C8              Rx   d 8 50 FE 14 AA 00 00 00 00
   9.600000 1  C8              Rx   d 8 55 FE 14 AA 00 00 00 00
   9.610000 1  C8              Rx   d 8 59 FE 13 AA 00 00 00 00
   9.620000 1  C8              Rx   d 8 5E FE 12 AA 00 00 00 00
   9.630000 1  C8              Rx   d 8 64 FE 12 AA 00 00 00 00
   9.640000 1  C8              Rx   d 8 69 FE 11 AA 00 00 00 00
   9.650000 1  C8              Rx   d 8 70 FE 11 AA 00 00 00 00
   9.660000 1  C8              Rx   d 8 76 FE 11 AA 00 00 00 00
   9.670000 1  C8              Rx   d 8 7D FE 10 AA 00 00 00 00
   9.680000 1  C8              Rx   d 8 85 FE 10 AA 00 00 00 00
   9.690000 1  C8              Rx   d 8 8C FE 0F AA 00 00 00 00
   9.700000 1  C8              Rx   d 8 94 FE 0E AA 00 00 00 00
   9.710000 1  C8              Rx   d 8 9D FE 0E AA 00 00 00 00
   9.720000 1  C8              Rx   d 8 A6 FE 0D AA 00 00 00 00
   9.730000 1  C8              Rx   d 8 AF FE 0D AA 00 00 00 00
   9.740000 1  C8              Rx   d 8 B8 FE 0C AA 00 00 00 00
   9.750000 1  C8              Rx   d 8 C2 FE 0C AA 00 00 00 00
   9.760000 1  C8              Rx   d 8 CC FE 0C AA 00 00 00 00
   9.770000 1  C8              Rx   d 8 D7 FE 0B AA 00 00 00 00
   9.780000 1  C8              Rx   d 8 E2 FE 0B AA 00 00 00 00
   9.790000 1  C8              Rx   d 8 ED FE 0A AA 00 00 00 00
   9.800000 1  C8              Rx   d 8 F8 FE 09 AA 00 00 00 00
   9.810000 1  C8              Rx   d 8 04 FF 09 AA 00 00 00 00
   9.820000 1  C8              Rx   d 8 0F FF 08 AA 00 00 00 00
   9.830000 1  C8              Rx   d 8 1B FF 08 AA 00 00 00 00
   9.840000 1  C8              Rx   d 8 28 FF 08 AA 00 00 00 00
   9.850000 1  C8              Rx   d 8 34 FF 07 AA 00 00 00 00
   9.860000 1  C8              Rx   d 8 41 FF 07 AA 00 00 00 00
   9.870000 1  C8              Rx   d 8 4E FF 06 AA 00 00 00 00
   9.880000 1  C8              Rx   d 8 5B FF 05 AA 00 00 00 00
   9.890000 1  C8              Rx   d 8 68 FF 05 AA 00 00 00 00
   9.900000 1  C8              Rx   d 8 75 FF 04 AA 00 00 00 00
   9.910000 1  C8              Rx   d 8 83 FF 04 AA 00 00 00 00
   9.920000 1  C8              Rx   d 8 91 FF 04 AA 00 00 00 00
   9.930000 1  C8              Rx   d 8 9E FF 03 AA 00 00 00 00
   9.940000 1  C8              Rx   d 8 AC FF 03 AA 00 00 00 00
   9.950000 1  C8              Rx   d 8 BA FF 02 AA 00 00 00 00
   9.960000 1  C8              Rx   d 8 C8 FF 01 AA 00 00 00 00
   9.970000 1  C8              Rx   d 8 D6 FF 01 AA 00 00 00 00
   9.980000 1  C8              Rx   d 8 E4 FF 00 AA 00 00 00 00
   9.990000 1  C8              Rx   d 8 F2 FF 00 AA 00 00 00 00
